
**** 11/24/13 01:09:36 *********** Evaluation PSpice (Nov 1999) **************

 * C:\Users\Ciro\Dropbox\PSPICE\Projects\Amplificador Bipolar Classe A Vsin.sch


 ****     CIRCUIT DESCRIPTION


******************************************************************************




* Schematics Version 9.1 - Web Update 1
* Sun Nov 24 01:09:32 2013



** Analysis setup **
.tran 2e-9 1ms
.OP 


* From [PSPICE NETLIST] section of pspiceev.ini:
.lib "nom.lib"

.INC "Amplificador Bipolar Classe A Vsin.net"

**** INCLUDING "Amplificador Bipolar Classe A Vsin.net" ****
* Schematics Netlist *



C_C1         $N_0001 $N_0002  2.2uF  
C_C2         $N_0003 $N_0004  2.2uF  
Q_Q1         $N_0003 $N_0002 $N_0005 Q2N2222
R_R4         0 $N_0005  100  
C_C3         0 $N_0005  2.2uF  
R_R1         $N_0002 VCC  40K  
R_R2         0 $N_0002  5K  
V_V1         VCC 0 15V
V_Vin         $N_0001 0 DC 0 
+SIN 0 0.05 10000 0 0 0
R_R5         0 $N_0004  10k  
R_R3         $N_0003 VCC  1k  

**** RESUMING "Amplificador Bipolar Classe A Vsin.cir" ****
.INC "Amplificador Bipolar Classe A Vsin.als"



**** INCLUDING "Amplificador Bipolar Classe A Vsin.als" ****
* Schematics Aliases *

.ALIASES
C_C1            C1(1=$N_0001 2=$N_0002 )
C_C2            C2(1=$N_0003 2=$N_0004 )
Q_Q1            Q1(c=$N_0003 b=$N_0002 e=$N_0005 )
R_R4            R4(1=0 2=$N_0005 )
C_C3            C3(1=0 2=$N_0005 )
R_R1            R1(1=$N_0002 2=VCC )
R_R2            R2(1=0 2=$N_0002 )
V_V1            V1(+=VCC -=0 )
V_Vin           Vin(+=$N_0001 -=0 )
R_R5            R5(1=0 2=$N_0004 )
R_R3            R3(1=$N_0003 2=VCC )
_    _(VCC=VCC)
.ENDALIASES


**** RESUMING "Amplificador Bipolar Classe A Vsin.cir" ****
.probe


.END

**** 11/24/13 01:09:36 *********** Evaluation PSpice (Nov 1999) **************

 * C:\Users\Ciro\Dropbox\PSPICE\Projects\Amplificador Bipolar Classe A Vsin.sch


 ****     BJT MODEL PARAMETERS


******************************************************************************




               Q2N2222         
               NPN             
          IS   14.340000E-15 
          BF  255.9          
          NF    1            
         VAF   74.03         
         IKF     .2847       
         ISE   14.340000E-15 
          NE    1.307        
          BR    6.092        
          NR    1            
          RB   10            
          RC    1            
         CJE   22.010000E-12 
         MJE     .377        
         CJC    7.306000E-12 
         MJC     .3416       
          TF  411.100000E-12 
         XTF    3            
         VTF    1.7          
         ITF     .6          
          TR   46.910000E-09 
         XTB    1.5          
          CN    2.42         
           D     .87         


**** 11/24/13 01:09:36 *********** Evaluation PSpice (Nov 1999) **************

 * C:\Users\Ciro\Dropbox\PSPICE\Projects\Amplificador Bipolar Classe A Vsin.sch


 ****     SMALL SIGNAL BIAS SOLUTION       TEMPERATURE =   27.000 DEG C


******************************************************************************



 NODE   VOLTAGE     NODE   VOLTAGE     NODE   VOLTAGE     NODE   VOLTAGE


(  VCC)   15.0000  ($N_0001)    0.0000                   ($N_0002)    1.4798    

($N_0003)    7.2235                   ($N_0004)    0.0000                       

($N_0005)     .7819                   




    VOLTAGE SOURCE CURRENTS
    NAME         CURRENT

    V_V1        -8.114E-03
    V_Vin        0.000E+00

    TOTAL POWER DISSIPATION   1.22E-01  WATTS


**** 11/24/13 01:09:36 *********** Evaluation PSpice (Nov 1999) **************

 * C:\Users\Ciro\Dropbox\PSPICE\Projects\Amplificador Bipolar Classe A Vsin.sch


 ****     OPERATING POINT INFORMATION      TEMPERATURE =   27.000 DEG C


******************************************************************************






**** BIPOLAR JUNCTION TRANSISTORS


NAME         Q_Q1      
MODEL        Q2N2222   
IB           4.20E-05 
IC           7.78E-03 
VBE          6.98E-01 
VBC         -5.74E+00 
VCE          6.44E+00 
BETADC       1.85E+02 
GM           2.93E-01 
RPI          6.64E+02 
RX           1.00E+01 
RO           1.03E+04 
CBE          1.58E-10 
CBC          3.50E-12 
CJS          0.00E+00 
BETAAC       1.95E+02 
CBX/CBX2     0.00E+00 
FT/FT2       2.88E+08 


**** 11/24/13 01:09:36 *********** Evaluation PSpice (Nov 1999) **************

 * C:\Users\Ciro\Dropbox\PSPICE\Projects\Amplificador Bipolar Classe A Vsin.sch


 ****     INITIAL TRANSIENT SOLUTION       TEMPERATURE =   27.000 DEG C


******************************************************************************



 NODE   VOLTAGE     NODE   VOLTAGE     NODE   VOLTAGE     NODE   VOLTAGE


(  VCC)   15.0000  ($N_0001)    0.0000                   ($N_0002)    1.4798    

($N_0003)    7.2235                   ($N_0004)    0.0000                       

($N_0005)     .7819                   




    VOLTAGE SOURCE CURRENTS
    NAME         CURRENT

    V_V1        -8.114E-03
    V_Vin        0.000E+00

    TOTAL POWER DISSIPATION   1.22E-01  WATTS



          JOB CONCLUDED

          TOTAL JOB TIME             .02
