
**** 11/24/13 01:13:11 *********** Evaluation PSpice (Nov 1999) **************

 * C:\Users\Ciro\Dropbox\PSPICE\Projects\Amplificador Bipolar Polarizado.sch


 ****     CIRCUIT DESCRIPTION


******************************************************************************




* Schematics Version 9.1 - Web Update 1
* Sun Nov 24 01:13:08 2013



** Analysis setup **
.OP 


* From [PSPICE NETLIST] section of pspiceev.ini:
.lib "nom.lib"

.INC "Amplificador Bipolar Polarizado.net"

**** INCLUDING "Amplificador Bipolar Polarizado.net" ****
* Schematics Netlist *



Q_Q1         $N_0002 $N_0001 $N_0003 Q2N2222
R_R4         0 $N_0003  100  
R_R1         $N_0001 VCC  40K  
R_R2         0 $N_0001  5K  
R_R3         $N_0002 VCC  1k  
V_V1         VCC 0 10V

**** RESUMING "Amplificador Bipolar Polarizado.cir" ****
.INC "Amplificador Bipolar Polarizado.als"



**** INCLUDING "Amplificador Bipolar Polarizado.als" ****
* Schematics Aliases *

.ALIASES
Q_Q1            Q1(c=$N_0002 b=$N_0001 e=$N_0003 )
R_R4            R4(1=0 2=$N_0003 )
R_R1            R1(1=$N_0001 2=VCC )
R_R2            R2(1=0 2=$N_0001 )
R_R3            R3(1=$N_0002 2=VCC )
V_V1            V1(+=VCC -=0 )
_    _(VCC=VCC)
.ENDALIASES


**** RESUMING "Amplificador Bipolar Polarizado.cir" ****
.probe


.END

**** 11/24/13 01:13:11 *********** Evaluation PSpice (Nov 1999) **************

 * C:\Users\Ciro\Dropbox\PSPICE\Projects\Amplificador Bipolar Polarizado.sch


 ****     BJT MODEL PARAMETERS


******************************************************************************




               Q2N2222         
               NPN             
          IS   14.340000E-15 
          BF  255.9          
          NF    1            
         VAF   74.03         
         IKF     .2847       
         ISE   14.340000E-15 
          NE    1.307        
          BR    6.092        
          NR    1            
          RB   10            
          RC    1            
         CJE   22.010000E-12 
         MJE     .377        
         CJC    7.306000E-12 
         MJC     .3416       
          TF  411.100000E-12 
         XTF    3            
         VTF    1.7          
         ITF     .6          
          TR   46.910000E-09 
         XTB    1.5          
          CN    2.42         
           D     .87         


**** 11/24/13 01:13:11 *********** Evaluation PSpice (Nov 1999) **************

 * C:\Users\Ciro\Dropbox\PSPICE\Projects\Amplificador Bipolar Polarizado.sch


 ****     SMALL SIGNAL BIAS SOLUTION       TEMPERATURE =   27.000 DEG C


******************************************************************************



 NODE   VOLTAGE     NODE   VOLTAGE     NODE   VOLTAGE     NODE   VOLTAGE


(  VCC)   10.0000  ($N_0001)    1.0236                   ($N_0002)    6.5480    

($N_0003)     .3472                   




    VOLTAGE SOURCE CURRENTS
    NAME         CURRENT

    V_V1        -3.676E-03

    TOTAL POWER DISSIPATION   3.68E-02  WATTS


**** 11/24/13 01:13:11 *********** Evaluation PSpice (Nov 1999) **************

 * C:\Users\Ciro\Dropbox\PSPICE\Projects\Amplificador Bipolar Polarizado.sch


 ****     OPERATING POINT INFORMATION      TEMPERATURE =   27.000 DEG C


******************************************************************************






**** BIPOLAR JUNCTION TRANSISTORS


NAME         Q_Q1      
MODEL        Q2N2222   
IB           1.97E-05 
IC           3.45E-03 
VBE          6.76E-01 
VBC         -5.52E+00 
VCE          6.20E+00 
BETADC       1.75E+02 
GM           1.32E-01 
RPI          1.43E+03 
RX           1.00E+01 
RO           2.30E+04 
CBE          9.15E-11 
CBC          3.54E-12 
CJS          0.00E+00 
BETAAC       1.89E+02 
CBX/CBX2     0.00E+00 
FT/FT2       2.21E+08 



          JOB CONCLUDED

          TOTAL JOB TIME            0.00
